Freq.	V(n002)
1.00000000000000e+00	(-6.79879847744457e+01dB,1.78919873827804e+02°)
1.00230523807790e+00	(-6.79479903129748e+01dB,1.78917384274230e+02°)
1.00461579027839e+00	(-6.79079958770616e+01dB,1.78914888984374e+02°)
1.00693166885180e+00	(-6.78680014668243e+01dB,1.78912387945034e+02°)
1.00925288607668e+00	(-6.78280070823811e+01dB,1.78909881142974e+02°)
1.01157945425990e+00	(-6.77880127238512e+01dB,1.78907368564929e+02°)
1.01391138573668e+00	(-6.77480183913541e+01dB,1.78904850197603e+02°)
1.01624869287070e+00	(-6.77080240850098e+01dB,1.78902326027671e+02°)
1.01859138805412e+00	(-6.76680298049390e+01dB,1.78899796041774e+02°)
1.02093948370768e+00	(-6.76280355512630e+01dB,1.78897260226527e+02°)
1.02329299228075e+00	(-6.75880413241034e+01dB,1.78894718568510e+02°)
1.02565192625141e+00	(-6.75480471235826e+01dB,1.78892171054274e+02°)
1.02801629812647e+00	(-6.75080529498236e+01dB,1.78889617670341e+02°)
1.03038612044162e+00	(-6.74680588029497e+01dB,1.78887058403199e+02°)
1.03276140576140e+00	(-6.74280646830849e+01dB,1.78884493239306e+02°)
1.03514216667934e+00	(-6.73880705903540e+01dB,1.78881922165090e+02°)
1.03752841581801e+00	(-6.73480765248820e+01dB,1.78879345166946e+02°)
1.03992016582906e+00	(-6.73080824867947e+01dB,1.78876762231239e+02°)
1.04231742939330e+00	(-6.72680884762185e+01dB,1.78874173344304e+02°)
1.04472021922080e+00	(-6.72280944932802e+01dB,1.78871578492441e+02°)
1.04712854805090e+00	(-6.71881005381073e+01dB,1.78868977661922e+02°)
1.04954242865232e+00	(-6.71481066108280e+01dB,1.78866370838987e+02°)
1.05196187382322e+00	(-6.71081127115709e+01dB,1.78863758009841e+02°)
1.05438689639126e+00	(-6.70681188404652e+01dB,1.78861139160663e+02°)
1.05681750921366e+00	(-6.70281249976409e+01dB,1.78858514277595e+02°)
1.05925372517729e+00	(-6.69881311832284e+01dB,1.78855883346750e+02°)
1.06169555719872e+00	(-6.69481373973587e+01dB,1.78853246354210e+02°)
1.06414301822431e+00	(-6.69081436401636e+01dB,1.78850603286022e+02°)
1.06659612123026e+00	(-6.68681499117753e+01dB,1.78847954128203e+02°)
1.06905487922266e+00	(-6.68281562123267e+01dB,1.78845298866739e+02°)
1.07151930523761e+00	(-6.67881625419513e+01dB,1.78842637487581e+02°)
1.07398941234124e+00	(-6.67481689007832e+01dB,1.78839969976650e+02°)
1.07646521362983e+00	(-6.67081752889572e+01dB,1.78837296319833e+02°)
1.07894672222983e+00	(-6.66681817066085e+01dB,1.78834616502987e+02°)
1.08143395129794e+00	(-6.66281881538732e+01dB,1.78831930511934e+02°)
1.08392691402120e+00	(-6.65881946308879e+01dB,1.78829238332465e+02°)
1.08642562361706e+00	(-6.65482011377898e+01dB,1.78826539950338e+02°)
1.08893009333343e+00	(-6.65082076747168e+01dB,1.78823835351278e+02°)
1.09144033644876e+00	(-6.64682142418074e+01dB,1.78821124520978e+02°)
1.09395636627209e+00	(-6.64282208392007e+01dB,1.78818407445098e+02°)
1.09647819614318e+00	(-6.63882274670365e+01dB,1.78815684109265e+02°)
1.09900583943252e+00	(-6.63482341254552e+01dB,1.78812954499072e+02°)
1.10153930954141e+00	(-6.63082408145979e+01dB,1.78810218600080e+02°)
1.10407861990207e+00	(-6.62682475346064e+01dB,1.78807476397818e+02°)
1.10662378397766e+00	(-6.62282542856229e+01dB,1.78804727877779e+02°)
1.10917481526240e+00	(-6.61882610677906e+01dB,1.78801973025426e+02°)
1.11173172728159e+00	(-6.61482678812532e+01dB,1.78799211826186e+02°)
1.11429453359173e+00	(-6.61082747261549e+01dB,1.78796444265453e+02°)
1.11686324778056e+00	(-6.60682816026409e+01dB,1.78793670328589e+02°)
1.11943788346715e+00	(-6.60282885108567e+01dB,1.78790890000922e+02°)
1.12201845430196e+00	(-6.59882954509488e+01dB,1.78788103267745e+02°)
1.12460497396692e+00	(-6.59483024230642e+01dB,1.78785310114318e+02°)
1.12719745617551e+00	(-6.59083094273506e+01dB,1.78782510525868e+02°)
1.12979591467280e+00	(-6.58683164639565e+01dB,1.78779704487587e+02°)
1.13240036323556e+00	(-6.58283235330308e+01dB,1.78776891984634e+02°)
1.13501081567231e+00	(-6.57883306347233e+01dB,1.78774073002133e+02°)
1.13762728582343e+00	(-6.57483377691846e+01dB,1.78771247525174e+02°)
1.14024978756117e+00	(-6.57083449365657e+01dB,1.78768415538815e+02°)
1.14287833478977e+00	(-6.56683521370186e+01dB,1.78765577028076e+02°)
1.14551294144553e+00	(-6.56283593706957e+01dB,1.78762731977946e+02°)
1.14815362149688e+00	(-6.55883666377502e+01dB,1.78759880373378e+02°)
1.15080038894443e+00	(-6.55483739383363e+01dB,1.78757022199290e+02°)
1.15345325782109e+00	(-6.55083812726084e+01dB,1.78754157440566e+02°)
1.15611224219210e+00	(-6.54683886407221e+01dB,1.78751286082057e+02°)
1.15877735615512e+00	(-6.54283960428333e+01dB,1.78748408108576e+02°)
1.16144861384034e+00	(-6.53884034790990e+01dB,1.78745523504904e+02°)
1.16412602941049e+00	(-6.53484109496766e+01dB,1.78742632255787e+02°)
1.16680961706096e+00	(-6.53084184547244e+01dB,1.78739734345933e+02°)
1.16949939101987e+00	(-6.52684259944015e+01dB,1.78736829760018e+02°)
1.17219536554813e+00	(-6.52284335688674e+01dB,1.78733918482682e+02°)
1.17489755493953e+00	(-6.51884411782827e+01dB,1.78731000498530e+02°)
1.17760597352080e+00	(-6.51484488228086e+01dB,1.78728075792132e+02°)
1.18032063565173e+00	(-6.51084565026071e+01dB,1.78725144348021e+02°)
1.18304155572516e+00	(-6.50684642178408e+01dB,1.78722206150696e+02°)
1.18576874816716e+00	(-6.50284719686731e+01dB,1.78719261184620e+02°)
1.18850222743702e+00	(-6.49884797552683e+01dB,1.78716309434221e+02°)
1.19124200802737e+00	(-6.49484875777913e+01dB,1.78713350883891e+02°)
1.19398810446427e+00	(-6.49084954364078e+01dB,1.78710385517985e+02°)
1.19674053130724e+00	(-6.48685033312844e+01dB,1.78707413320825e+02°)
1.19949930314938e+00	(-6.48285112625881e+01dB,1.78704434276694e+02°)
1.20226443461741e+00	(-6.47885192304871e+01dB,1.78701448369840e+02°)
1.20503594037179e+00	(-6.47485272351501e+01dB,1.78698455584477e+02°)
1.20781383510678e+00	(-6.47085352767467e+01dB,1.78695455904779e+02°)
1.21059813355048e+00	(-6.46685433554473e+01dB,1.78692449314888e+02°)
1.21338885046497e+00	(-6.46285514714229e+01dB,1.78689435798905e+02°)
1.21618600064636e+00	(-6.45885596248456e+01dB,1.78686415340899e+02°)
1.21898959892486e+00	(-6.45485678158879e+01dB,1.78683387924900e+02°)
1.22179966016487e+00	(-6.45085760447235e+01dB,1.78680353534902e+02°)
1.22461619926504e+00	(-6.44685843115265e+01dB,1.78677312154862e+02°)
1.22743923115840e+00	(-6.44285926164722e+01dB,1.78674263768701e+02°)
1.23026877081238e+00	(-6.43886009597365e+01dB,1.78671208360303e+02°)
1.23310483322890e+00	(-6.43486093414960e+01dB,1.78668145913514e+02°)
1.23594743344451e+00	(-6.43086177619284e+01dB,1.78665076412144e+02°)
1.23879658653036e+00	(-6.42686262212119e+01dB,1.78661999839967e+02°)
1.24165230759241e+00	(-6.42286347195258e+01dB,1.78658916180717e+02°)
1.24451461177138e+00	(-6.41886432570501e+01dB,1.78655825418093e+02°)
1.24738351424294e+00	(-6.41486518339656e+01dB,1.78652727535755e+02°)
1.25025903021771e+00	(-6.41086604504539e+01dB,1.78649622517329e+02°)
1.25314117494141e+00	(-6.40686691066977e+01dB,1.78646510346399e+02°)
1.25602996369487e+00	(-6.40286778028802e+01dB,1.78643391006515e+02°)
1.25892541179416e+00	(-6.39886865391856e+01dB,1.78640264481187e+02°)
1.26182753459066e+00	(-6.39486953157991e+01dB,1.78637130753887e+02°)
1.26473634747115e+00	(-6.39087041329063e+01dB,1.78633989808053e+02°)
1.26765186585784e+00	(-6.38687129906943e+01dB,1.78630841627079e+02°)
1.27057410520854e+00	(-6.38287218893504e+01dB,1.78627686194327e+02°)
1.27350308101666e+00	(-6.37887308290633e+01dB,1.78624523493118e+02°)
1.27643880881134e+00	(-6.37487398100223e+01dB,1.78621353506733e+02°)
1.27938130415752e+00	(-6.37087488324175e+01dB,1.78618176218419e+02°)
1.28233058265602e+00	(-6.36687578964402e+01dB,1.78614991611381e+02°)
1.28528665994361e+00	(-6.36287670022822e+01dB,1.78611799668788e+02°)
1.28824955169313e+00	(-6.35887761501364e+01dB,1.78608600373768e+02°)
1.29121927361353e+00	(-6.35487853401965e+01dB,1.78605393709414e+02°)
1.29419584144998e+00	(-6.35087945726573e+01dB,1.78602179658776e+02°)
1.29717927098395e+00	(-6.34688038477142e+01dB,1.78598958204868e+02°)
1.30016957803328e+00	(-6.34288131655637e+01dB,1.78595729330665e+02°)
1.30316677845229e+00	(-6.33888225264032e+01dB,1.78592493019102e+02°)
1.30617088813183e+00	(-6.33488319304308e+01dB,1.78589249253075e+02°)
1.30918192299940e+00	(-6.33088413778458e+01dB,1.78585998015442e+02°)
1.31219989901920e+00	(-6.32688508688482e+01dB,1.78582739289021e+02°)
1.31522483219223e+00	(-6.32288604036391e+01dB,1.78579473056591e+02°)
1.31825673855640e+00	(-6.31888699824203e+01dB,1.78576199300891e+02°)
1.32129563418657e+00	(-6.31488796053948e+01dB,1.78572918004620e+02°)
1.32434153519466e+00	(-6.31088892727663e+01dB,1.78569629150439e+02°)
1.32739445772973e+00	(-6.30688989847396e+01dB,1.78566332720969e+02°)
1.33045441797808e+00	(-6.30289087415204e+01dB,1.78563028698791e+02°)
1.33352143216332e+00	(-6.29889185433152e+01dB,1.78559717066445e+02°)
1.33659551654643e+00	(-6.29489283903317e+01dB,1.78556397806432e+02°)
1.33967668742593e+00	(-6.29089382827785e+01dB,1.78553070901213e+02°)
1.34276496113786e+00	(-6.28689482208649e+01dB,1.78549736333210e+02°)
1.34586035405594e+00	(-6.28289582048014e+01dB,1.78546394084803e+02°)
1.34896288259164e+00	(-6.27889682347996e+01dB,1.78543044138331e+02°)
1.35207256319427e+00	(-6.27489783110717e+01dB,1.78539686476096e+02°)
1.35518941235103e+00	(-6.27089884338312e+01dB,1.78536321080357e+02°)
1.35831344658715e+00	(-6.26689986032925e+01dB,1.78532947933332e+02°)
1.36144468246594e+00	(-6.26290088196709e+01dB,1.78529567017200e+02°)
1.36458313658892e+00	(-6.25890190831827e+01dB,1.78526178314098e+02°)
1.36772882559584e+00	(-6.25490293940453e+01dB,1.78522781806123e+02°)
1.37088176616484e+00	(-6.25090397524771e+01dB,1.78519377475331e+02°)
1.37404197501251e+00	(-6.24690501586973e+01dB,1.78515965303735e+02°)
1.37720946889394e+00	(-6.24290606129264e+01dB,1.78512545273310e+02°)
1.38038426460288e+00	(-6.23890711153857e+01dB,1.78509117365988e+02°)
1.38356637897177e+00	(-6.23490816662977e+01dB,1.78505681563660e+02°)
1.38675582887188e+00	(-6.23090922658857e+01dB,1.78502237848175e+02°)
1.38995263121334e+00	(-6.22691029143741e+01dB,1.78498786201342e+02°)
1.39315680294529e+00	(-6.22291136119886e+01dB,1.78495326604927e+02°)
1.39636836105593e+00	(-6.21891243589555e+01dB,1.78491859040654e+02°)
1.39958732257261e+00	(-6.21491351555025e+01dB,1.78488383490208e+02°)
1.40281370456195e+00	(-6.21091460018582e+01dB,1.78484899935228e+02°)
1.40604752412990e+00	(-6.20691568982522e+01dB,1.78481408357314e+02°)
1.40928879842186e+00	(-6.20291678449153e+01dB,1.78477908738024e+02°)
1.41253754462274e+00	(-6.19891788420792e+01dB,1.78474401058871e+02°)
1.41579377995707e+00	(-6.19491898899769e+01dB,1.78470885301329e+02°)
1.41905752168908e+00	(-6.19092009888421e+01dB,1.78467361446829e+02°)
1.42232878712281e+00	(-6.18692121389101e+01dB,1.78463829476758e+02°)
1.42560759360218e+00	(-6.18292233404167e+01dB,1.78460289372461e+02°)
1.42889395851109e+00	(-6.17892345935993e+01dB,1.78456741115241e+02°)
1.43218789927353e+00	(-6.17492458986960e+01dB,1.78453184686358e+02°)
1.43548943335364e+00	(-6.17092572559462e+01dB,1.78449620067030e+02°)
1.43879857825583e+00	(-6.16692686655905e+01dB,1.78446047238431e+02°)
1.44211535152486e+00	(-6.16292801278703e+01dB,1.78442466181691e+02°)
1.44543977074592e+00	(-6.15892916430284e+01dB,1.78438876877900e+02°)
1.44877185354475e+00	(-6.15493032113086e+01dB,1.78435279308102e+02°)
1.45211161758773e+00	(-6.15093148329557e+01dB,1.78431673453298e+02°)
1.45545908058195e+00	(-6.14693265082160e+01dB,1.78428059294447e+02°)
1.45881426027534e+00	(-6.14293382373364e+01dB,1.78424436812464e+02°)
1.46217717445671e+00	(-6.13893500205654e+01dB,1.78420805988220e+02°)
1.46554784095590e+00	(-6.13493618581525e+01dB,1.78417166802542e+02°)
1.46892627764385e+00	(-6.13093737503482e+01dB,1.78413519236214e+02°)
1.47231250243271e+00	(-6.12693856974043e+01dB,1.78409863269975e+02°)
1.47570653327588e+00	(-6.12293976995738e+01dB,1.78406198884522e+02°)
1.47910838816819e+00	(-6.11894097571108e+01dB,1.78402526060505e+02°)
1.48251808514594e+00	(-6.11494218702705e+01dB,1.78398844778534e+02°)
1.48593564228699e+00	(-6.11094340393093e+01dB,1.78395155019169e+02°)
1.48936107771090e+00	(-6.10694462644850e+01dB,1.78391456762932e+02°)
1.49279440957898e+00	(-6.10294585460563e+01dB,1.78387749990295e+02°)
1.49623565609442e+00	(-6.09894708842832e+01dB,1.78384034681689e+02°)
1.49968483550236e+00	(-6.09494832794269e+01dB,1.78380310817499e+02°)
1.50314196609001e+00	(-6.09094957317498e+01dB,1.78376578378064e+02°)
1.50660706618673e+00	(-6.08695082415156e+01dB,1.78372837343681e+02°)
1.51008015416413e+00	(-6.08295208089890e+01dB,1.78369087694600e+02°)
1.51356124843619e+00	(-6.07895334344361e+01dB,1.78365329411025e+02°)
1.51705036745932e+00	(-6.07495461181242e+01dB,1.78361562473118e+02°)
1.52054752973248e+00	(-6.07095588603218e+01dB,1.78357786860993e+02°)
1.52405275379728e+00	(-6.06695716612985e+01dB,1.78354002554719e+02°)
1.52756605823806e+00	(-6.06295845213255e+01dB,1.78350209534321e+02°)
1.53108746168202e+00	(-6.05895974406748e+01dB,1.78346407779777e+02°)
1.53461698279928e+00	(-6.05496104196201e+01dB,1.78342597271019e+02°)
1.53815464030302e+00	(-6.05096234584359e+01dB,1.78338777987934e+02°)
1.54170045294954e+00	(-6.04696365573984e+01dB,1.78334949910364e+02°)
1.54525443953840e+00	(-6.04296497167848e+01dB,1.78331113018103e+02°)
1.54881661891247e+00	(-6.03896629368737e+01dB,1.78327267290900e+02°)
1.55238700995807e+00	(-6.03496762179449e+01dB,1.78323412708459e+02°)
1.55596563160506e+00	(-6.03096895602794e+01dB,1.78319549250434e+02°)
1.55955250282694e+00	(-6.02697029641598e+01dB,1.78315676896437e+02°)
1.56314764264094e+00	(-6.02297164298698e+01dB,1.78311795626030e+02°)
1.56675107010813e+00	(-6.01897299576943e+01dB,1.78307905418731e+02°)
1.57036280433354e+00	(-6.01497435479197e+01dB,1.78304006254010e+02°)
1.57398286446620e+00	(-6.01097572008337e+01dB,1.78300098111289e+02°)
1.57761126969933e+00	(-6.00697709167252e+01dB,1.78296180969945e+02°)
1.58124803927037e+00	(-6.00297846958846e+01dB,1.78292254809308e+02°)
1.58489319246110e+00	(-5.99897985386034e+01dB,1.78288319608659e+02°)
1.58854674859776e+00	(-5.99498124451748e+01dB,1.78284375347233e+02°)
1.59220872705115e+00	(-5.99098264158929e+01dB,1.78280422004218e+02°)
1.59587914723672e+00	(-5.98698404510535e+01dB,1.78276459558755e+02°)
1.59955802861465e+00	(-5.98298545509537e+01dB,1.78272487989935e+02°)
1.60324539069002e+00	(-5.97898687158919e+01dB,1.78268507276803e+02°)
1.60694125301286e+00	(-5.97498829461678e+01dB,1.78264517398357e+02°)
1.61064563517825e+00	(-5.97098972420827e+01dB,1.78260518333545e+02°)
1.61435855682647e+00	(-5.96699116039390e+01dB,1.78256510061269e+02°)
1.61808003764305e+00	(-5.96299260320408e+01dB,1.78252492560381e+02°)
1.62181009735891e+00	(-5.95899405266934e+01dB,1.78248465809688e+02°)
1.62554875575047e+00	(-5.95499550882036e+01dB,1.78244429787944e+02°)
1.62929603263970e+00	(-5.95099697168795e+01dB,1.78240384473859e+02°)
1.63305194789432e+00	(-5.94699844130307e+01dB,1.78236329846092e+02°)
1.63681652142779e+00	(-5.94299991769682e+01dB,1.78232265883254e+02°)
1.64058977319952e+00	(-5.93900140090045e+01dB,1.78228192563908e+02°)
1.64437172321491e+00	(-5.93500289094534e+01dB,1.78224109866565e+02°)
1.64816239152549e+00	(-5.93100438786303e+01dB,1.78220017769692e+02°)
1.65196179822900e+00	(-5.92700589168520e+01dB,1.78215916251704e+02°)
1.65576996346951e+00	(-5.92300740244366e+01dB,1.78211805290965e+02°)
1.65958690743754e+00	(-5.91900892017040e+01dB,1.78207684865794e+02°)
1.66341265037015e+00	(-5.91501044489752e+01dB,1.78203554954458e+02°)
1.66724721255104e+00	(-5.91101197665729e+01dB,1.78199415535175e+02°)
1.67109061431069e+00	(-5.90701351548212e+01dB,1.78195266586113e+02°)
1.67494287602642e+00	(-5.90301506140458e+01dB,1.78191108085391e+02°)
1.67880401812254e+00	(-5.89901661445738e+01dB,1.78186940011078e+02°)
1.68267406107045e+00	(-5.89501817467338e+01dB,1.78182762341192e+02°)
1.68655302538872e+00	(-5.89101974208560e+01dB,1.78178575053702e+02°)
1.69044093164324e+00	(-5.88702131672721e+01dB,1.78174378126527e+02°)
1.69433780044731e+00	(-5.88302289863151e+01dB,1.78170171537535e+02°)
1.69824365246172e+00	(-5.87902448783199e+01dB,1.78165955264544e+02°)
1.70215850839493e+00	(-5.87502608436226e+01dB,1.78161729285321e+02°)
1.70608238900310e+00	(-5.87102768825612e+01dB,1.78157493577584e+02°)
1.71001531509027e+00	(-5.86702929954750e+01dB,1.78153248118998e+02°)
1.71395730750840e+00	(-5.86303091827048e+01dB,1.78148992887179e+02°)
1.71790838715757e+00	(-5.85903254445932e+01dB,1.78144727859690e+02°)
1.72186857498599e+00	(-5.85503417814843e+01dB,1.78140453014045e+02°)
1.72583789199018e+00	(-5.85103581937237e+01dB,1.78136168327707e+02°)
1.72981635921508e+00	(-5.84703746816587e+01dB,1.78131873778084e+02°)
1.73380399775412e+00	(-5.84303912456380e+01dB,1.78127569342538e+02°)
1.73780082874935e+00	(-5.83904078860122e+01dB,1.78123254998376e+02°)
1.74180687339159e+00	(-5.83504246031333e+01dB,1.78118930722854e+02°)
1.74582215292048e+00	(-5.83104413973550e+01dB,1.78114596493176e+02°)
1.74984668862464e+00	(-5.82704582690326e+01dB,1.78110252286494e+02°)
1.75388050184174e+00	(-5.82304752185230e+01dB,1.78105898079910e+02°)
1.75792361395867e+00	(-5.81904922461847e+01dB,1.78101533850472e+02°)
1.76197604641161e+00	(-5.81505093523782e+01dB,1.78097159575176e+02°)
1.76603782068614e+00	(-5.81105265374651e+01dB,1.78092775230965e+02°)
1.77010895831740e+00	(-5.80705438018092e+01dB,1.78088380794732e+02°)
1.77418948089014e+00	(-5.80305611457755e+01dB,1.78083976243315e+02°)
1.77827941003890e+00	(-5.79905785697311e+01dB,1.78079561553501e+02°)
1.78237876744807e+00	(-5.79505960740445e+01dB,1.78075136702022e+02°)
1.78648757485203e+00	(-5.79106136590860e+01dB,1.78070701665560e+02°)
1.79060585403527e+00	(-5.78706313252275e+01dB,1.78066256420742e+02°)
1.79473362683250e+00	(-5.78306490728429e+01dB,1.78061800944142e+02°)
1.79887091512876e+00	(-5.77906669023075e+01dB,1.78057335212281e+02°)
1.80301774085955e+00	(-5.77506848139985e+01dB,1.78052859201627e+02°)
1.80717412601090e+00	(-5.77107028082948e+01dB,1.78048372888594e+02°)
1.81134009261958e+00	(-5.76707208855769e+01dB,1.78043876249543e+02°)
1.81551566277311e+00	(-5.76307390462273e+01dB,1.78039369260780e+02°)
1.81970085860996e+00	(-5.75907572906302e+01dB,1.78034851898559e+02°)
1.82389570231961e+00	(-5.75507756191713e+01dB,1.78030324139079e+02°)
1.82810021614272e+00	(-5.75107940322385e+01dB,1.78025785958485e+02°)
1.83231442237119e+00	(-5.74708125302211e+01dB,1.78021237332866e+02°)
1.83653834334832e+00	(-5.74308311135104e+01dB,1.78016678238261e+02°)
1.84077200146893e+00	(-5.73908497824995e+01dB,1.78012108650650e+02°)
1.84501541917945e+00	(-5.73508685375832e+01dB,1.78007528545961e+02°)
1.84926861897805e+00	(-5.73108873791583e+01dB,1.78002937900067e+02°)
1.85353162341479e+00	(-5.72709063076231e+01dB,1.77998336688785e+02°)
1.85780445509167e+00	(-5.72309253233781e+01dB,1.77993724887879e+02°)
1.86208713666284e+00	(-5.71909444268254e+01dB,1.77989102473057e+02°)
1.86637969083464e+00	(-5.71509636183691e+01dB,1.77984469419971e+02°)
1.87068214036577e+00	(-5.71109828984150e+01dB,1.77979825704219e+02°)
1.87499450806739e+00	(-5.70710022673709e+01dB,1.77975171301342e+02°)
1.87931681680324e+00	(-5.70310217256465e+01dB,1.77970506186828e+02°)
1.88364908948977e+00	(-5.69910412736531e+01dB,1.77965830336106e+02°)
1.88799134909627e+00	(-5.69510609118042e+01dB,1.77961143724553e+02°)
1.89234361864495e+00	(-5.69110806405152e+01dB,1.77956446327487e+02°)
1.89670592121112e+00	(-5.68711004602033e+01dB,1.77951738120171e+02°)
1.90107827992327e+00	(-5.68311203712874e+01dB,1.77947019077813e+02°)
1.90546071796322e+00	(-5.67911403741889e+01dB,1.77942289175562e+02°)
1.90985325856621e+00	(-5.67511604693305e+01dB,1.77937548388514e+02°)
1.91425592502106e+00	(-5.67111806571373e+01dB,1.77932796691706e+02°)
1.91866874067026e+00	(-5.66712009380362e+01dB,1.77928034060119e+02°)
1.92309172891013e+00	(-5.66312213124559e+01dB,1.77923260468678e+02°)
1.92752491319091e+00	(-5.65912417808274e+01dB,1.77918475892249e+02°)
1.93196831701690e+00	(-5.65512623435835e+01dB,1.77913680305644e+02°)
1.93642196394658e+00	(-5.65112830011589e+01dB,1.77908873683616e+02°)
1.94088587759275e+00	(-5.64713037539904e+01dB,1.77904056000861e+02°)
